
T24F0 000:002 SEGGER J-Link V6.44d Log File (0001ms, 0003ms total)
T24F0 000:002 DLL Compiled: Mar 27 2019 17:08:23 (0001ms, 0003ms total)
T24F0 000:002 Logging started @ 2020-05-07 16:02 (0001ms, 0003ms total)
T24F0 000:003 JLINK_SetWarnOutHandler(...) (0000ms, 0003ms total)
T24F0 000:003 JLINK_OpenEx(...)
Firmware: J-Link V9 compiled Dec 30 2018 15:35:20
Hardware: V9.20
S/N: 269200585
Feature(s): GDB, RDI, FlashBP, FlashDL, JFlash, RDDI
TELNET listener socket opened on port 19021WEBSRV 
Starting webserver (0025ms, 0028ms total)
T24F0 000:003 WEBSRV Webserver running on local port 19080 (0025ms, 0028ms total)
T24F0 000:003   returns O.K. (0025ms, 0028ms total)
T24F0 000:028 JLINK_GetEmuCaps()  returns 0xB9FF7BBF (0000ms, 0028ms total)
T24F0 000:028 JLINK_TIF_GetAvailable(...) (0000ms, 0028ms total)
T24F0 000:028 JLINK_SetErrorOutHandler(...) (0000ms, 0028ms total)
T24F0 000:028 JLINK_ExecCommand("ProjectFile = "E:\work\awtk-root\awtk-stm32f103ze-tencentos\JLinkSettings.ini"", ...). Ref file found at: C:\Keil_v5\ARM\Segger\JLinkDevices.ref (0002ms, 0030ms total)
T24F0 000:028 XML referenced by ref file: C:\Program Files (x86)\SEGGER\JLink_V644d\JLinkDevices.xml (0002ms, 0030ms total)
T24F0 000:028 C:\Program Files (x86)\SEGGER\JLink_V644d\JLinkDevices.xml evaluated successfully.  returns 0x00 (0074ms, 0102ms total)
T24F0 000:102 JLINK_ExecCommand("Device = STM32F103ZE", ...). Device "STM32F103ZE" selected.  returns 0x00 (0002ms, 0104ms total)
T24F0 000:104 JLINK_ExecCommand("DisableConnectionTimeout", ...).   returns 0x01 (0000ms, 0104ms total)
T24F0 000:104 JLINK_GetHardwareVersion()  returns 0x16760 (0000ms, 0104ms total)
T24F0 000:104 JLINK_GetDLLVersion()  returns 64404 (0000ms, 0104ms total)
T24F0 000:104 JLINK_GetFirmwareString(...) (0000ms, 0104ms total)
T24F0 000:104 JLINK_GetDLLVersion()  returns 64404 (0000ms, 0104ms total)
T24F0 000:104 JLINK_GetCompileDateTime() (0000ms, 0104ms total)
T24F0 000:104 JLINK_GetFirmwareString(...) (0000ms, 0104ms total)
T24F0 000:104 JLINK_GetHardwareVersion()  returns 0x16760 (0000ms, 0104ms total)
T24F0 000:104 JLINK_TIF_Select(JLINKARM_TIF_JTAG)  returns 0x00 (0003ms, 0107ms total)
T24F0 000:107 JLINK_SetSpeed(5000) (0000ms, 0107ms total)
T24F0 000:107 JLINK_GetIdData(...) >0x2F8 JTAG>TotalIRLen = 9, IRPrint = 0x0011 >0x30 JTAG> >0x50 JTAG>JTAG chain detection found 2 devices: #0 Id: 0x3BA00477, IRLen: 04, CoreSight JTAG-DP #1 Id: 0x06414041, IRLen: 05, STM32 Boundary Scan >0x40 JTAG> >0x40 JTAG> >0x40 JTAG> >0x30 JTAG> >0x40 JTAG> >0x40 JTAG> >0x40 JTAG> >0x40 JTAG> >0x40 JTAG> >0x40 JTAG> >0x40 JTAG> >0x40 JTAG> >0x40 JTAG> >0x40 JTAG> >0x40 JTAG> >0x40 JTAG> >0x40 JTAG> >0x40 JTAG> >0x40 JTAG> >0x40 JTAG> >0x40 JTAG> >0x40 JTAG>
 >0x40 JTAG> >0x40 JTAG> >0x40 JTAG> >0x40 JTAG> >0x40 JTAG> >0x2F8 JTAG>TotalIRLen = 9, IRPrint = 0x0011 >0x30 JTAG> >0x50 JTAG>JTAG chain detection found 2 devices: #0 Id: 0x3BA00477, IRLen: 04, CoreSight JTAG-DP #1 Id: 0x06414041, IRLen: 05, STM32 Boundary ScanScanning AP map to find all available APs >0x80 JTAG> >0x50 JTAG> >0x40 JTAG> >0x40 JTAG> >0x50 JTAG> >0x40 JTAG>AP[1]: Stopped AP scan as end of AP map has been reachedAP[0]: AHB-AP (IDR: 0x14770011)
Iterating through AP map to find AHB-AP to use >0x80 JTAG> >0x50 JTAG> >0x50 JTAG> >0x70 JTAG> >0x40 JTAG> >0x30 JTAG> >0x40 JTAG> >0x40 JTAG>AP[0]: Core foundAP[0]: AHB-AP ROM base: 0xE00FF000 >0x40 JTAG> >0x40 JTAG> >0x30 JTAG> >0x40 JTAG> >0x40 JTAG>CPUID register: 0x411FC231. Implementer code: 0x41 (ARM)Found Cortex-M3 r1p1, Little endian. -- Max. mem block: 0x00010C10 -- CPU_ReadMem(4 bytes @ 0xE000EDF0) -- CPU_WriteMem(4 bytes @ 0xE000EDF0) -- CPU_ReadMem(4 bytes @ 0xE0002000)
FPUnit: 6 code (BP) slots and 2 literal slots -- CPU_ReadMem(4 bytes @ 0xE000EDFC) -- CPU_WriteMem(4 bytes @ 0xE000EDFC) -- CPU_ReadMem(4 bytes @ 0xE0001000) -- CPU_WriteMem(4 bytes @ 0xE0001000) -- CPU_ReadMem(4 bytes @ 0xE000ED88) -- CPU_WriteMem(4 bytes @ 0xE000ED88) -- CPU_ReadMem(4 bytes @ 0xE000ED88) -- CPU_WriteMem(4 bytes @ 0xE000ED88)CoreSight components:ROMTbl[0] @ E00FF000 -- CPU_ReadMem(16 bytes @ 0xE00FF000) -- CPU_ReadMem(16 bytes @ 0xE000EFF0) -- CPU_ReadMem(16 bytes @ 0xE000EFE0)
ROMTbl[0][0]: E000E000, CID: B105E00D, PID: 001BB000 SCS -- CPU_ReadMem(16 bytes @ 0xE0001FF0) -- CPU_ReadMem(16 bytes @ 0xE0001FE0)ROMTbl[0][1]: E0001000, CID: B105E00D, PID: 001BB002 DWT -- CPU_ReadMem(16 bytes @ 0xE0002FF0) -- CPU_ReadMem(16 bytes @ 0xE0002FE0)ROMTbl[0][2]: E0002000, CID: B105E00D, PID: 000BB003 FPB -- CPU_ReadMem(16 bytes @ 0xE0000FF0) -- CPU_ReadMem(16 bytes @ 0xE0000FE0)ROMTbl[0][3]: E0000000, CID: B105E00D, PID: 001BB001 ITM -- CPU_ReadMem(16 bytes @ 0xE00FF010)
 -- CPU_ReadMem(16 bytes @ 0xE0040FF0) -- CPU_ReadMem(16 bytes @ 0xE0040FE0)ROMTbl[0][4]: E0040000, CID: B105900D, PID: 001BB923 TPIU-Lite -- CPU_ReadMem(16 bytes @ 0xE0041FF0) -- CPU_ReadMem(16 bytes @ 0xE0041FE0)ROMTbl[0][5]: E0041000, CID: B105900D, PID: 101BB924 ETM-M3 ScanLen=9 NumDevices=2 aId[0]=0x3BA00477 aIrRead[0]=0 aScanLen[0]=0 aScanRead[0]=0 (0043ms, 0150ms total)
T24F0 000:151 JLINK_JTAG_GetDeviceID(DeviceIndex = 0)  returns 0x3BA00477 (0000ms, 0150ms total)
T24F0 000:151 JLINK_JTAG_GetDeviceInfo(DeviceIndex = 0)  returns 0x00 (0000ms, 0150ms total)
T24F0 000:151 JLINK_JTAG_GetDeviceID(DeviceIndex = 1)  returns 0x6414041 (0000ms, 0150ms total)
T24F0 000:151 JLINK_JTAG_GetDeviceInfo(DeviceIndex = 1)  returns 0x00 (0000ms, 0150ms total)
T24F0 000:151 JLINK_GetDLLVersion()  returns 64404 (0000ms, 0150ms total)
T24F0 000:151 JLINK_CORE_GetFound()  returns 0x30000FF (0000ms, 0150ms total)
T24F0 000:151 JLINK_GetDebugInfo(0x100 = JLINKARM_ROM_TABLE_ADDR_INDEX) -- Value=0xE00FF000  returns 0x00 (0000ms, 0150ms total)
T24F0 000:151 JLINK_GetDebugInfo(0x100 = JLINKARM_ROM_TABLE_ADDR_INDEX) -- Value=0xE00FF000  returns 0x00 (0000ms, 0150ms total)
T24F0 000:151 JLINK_GetDebugInfo(0x101 = JLINKARM_DEBUG_INFO_ETM_ADDR_INDEX) -- Value=0xE0041000  returns 0x00 (0000ms, 0150ms total)
T24F0 000:151 JLINK_ReadMemEx(0xE0041FD0, 0x0020 Bytes, ..., Flags = 0x02000004) -- CPU_ReadMem(32 bytes @ 0xE0041FD0) - Data: 04 00 00 00 00 00 00 00 00 00 00 00 00 00 00 00 ...  returns 0x20 (0000ms, 0150ms total)
T24F0 000:151 JLINK_GetDebugInfo(0x102 = JLINKARM_DEBUG_INFO_MTB_ADDR_INDEX) -- Value=0x00000000  returns 0x00 (0000ms, 0150ms total)
T24F0 000:151 JLINK_GetDebugInfo(0x103 = JLINKARM_DEBUG_INFO_TPIU_ADDR_INDEX) -- Value=0xE0040000  returns 0x00 (0000ms, 0150ms total)
T24F0 000:151 JLINK_GetDebugInfo(0x104 = JLINKARM_DEBUG_INFO_ITM_ADDR_INDEX) -- Value=0xE0000000  returns 0x00 (0000ms, 0150ms total)
T24F0 000:151 JLINK_GetDebugInfo(0x105 = JLINKARM_DEBUG_INFO_DWT_ADDR_INDEX) -- Value=0xE0001000  returns 0x00 (0000ms, 0150ms total)
T24F0 000:151 JLINK_GetDebugInfo(0x106 = JLINKARM_DEBUG_INFO_FPB_ADDR_INDEX) -- Value=0xE0002000  returns 0x00 (0000ms, 0150ms total)
T24F0 000:151 JLINK_GetDebugInfo(0x107 = JLINKARM_DEBUG_INFO_NVIC_ADDR_INDEX) -- Value=0xE000E000  returns 0x00 (0000ms, 0150ms total)
T24F0 000:151 JLINK_GetDebugInfo(0x10C = JLINKARM_DEBUG_INFO_DBG_ADDR_INDEX) -- Value=0xE000EDF0  returns 0x00 (0000ms, 0150ms total)
T24F0 000:151 JLINK_ReadMemU32(0xE000ED00, 0x0001 Items, ...) -- CPU_ReadMem(4 bytes @ 0xE000ED00) - Data: 31 C2 1F 41  returns 1 (0001ms, 0151ms total)
T24F0 000:152 JLINK_GetDebugInfo(0x10F = JLINKARM_DEBUG_INFO_HAS_CORTEX_M_SECURITY_EXT_INDEX) -- Value=0x00000000  returns 0x00 (0000ms, 0151ms total)
T24F0 000:152 JLINK_SetResetType(JLINKARM_CM3_RESET_TYPE_NORMAL)  returns JLINKARM_CM3_RESET_TYPE_NORMAL (0000ms, 0151ms total)
T24F0 000:152 JLINK_Reset() -- CPU is running -- CPU_WriteMem(4 bytes @ 0xE000EDF0) -- CPU is running -- CPU_WriteMem(4 bytes @ 0xE000EDFC)Reset: Halt core after reset via DEMCR.VC_CORERESET.Reset: Reset device via AIRCR.SYSRESETREQ. -- CPU is running -- CPU_WriteMem(4 bytes @ 0xE000ED0C) -- CPU_ReadMem(4 bytes @ 0xE000EDF0) -- CPU_ReadMem(4 bytes @ 0xE000EDF0) -- CPU is running -- CPU_WriteMem(4 bytes @ 0xE000EDF0) -- CPU is running -- CPU_WriteMem(4 bytes @ 0xE000EDFC)
 -- CPU_ReadMem(4 bytes @ 0xE000EDF0) -- CPU_WriteMem(4 bytes @ 0xE000EDFC) -- CPU_WriteMem(4 bytes @ 0xE0001028) -- CPU_WriteMem(4 bytes @ 0xE0001038) -- CPU_WriteMem(4 bytes @ 0xE0001048) -- CPU_WriteMem(4 bytes @ 0xE0001058) -- CPU_WriteMem(4 bytes @ 0xE0002000) -- CPU_ReadMem(4 bytes @ 0xE000EDFC) -- CPU_ReadMem(4 bytes @ 0xE0001000) (0069ms, 0220ms total)
T24F0 000:221 JLINK_ReadReg(R15 (PC))  returns 0x08000144 (0000ms, 0220ms total)
T24F0 000:221 JLINK_ReadReg(XPSR)  returns 0x01000000 (0000ms, 0220ms total)
T24F0 000:221 JLINK_Halt()  returns 0x00 (0000ms, 0220ms total)
T24F0 000:221 JLINK_ReadMemU32(0xE000EDF0, 0x0001 Items, ...) -- CPU_ReadMem(4 bytes @ 0xE000EDF0) - Data: 03 00 03 00  returns 1 (0001ms, 0221ms total)
T24F0 000:222 JLINK_WriteU32(0xE000EDF0, 0xA05F0003) -- CPU_WriteMem(4 bytes @ 0xE000EDF0)  returns 0 (0001ms, 0222ms total)
T24F0 000:223 JLINK_WriteU32(0xE000EDFC, 0x01000000) -- CPU_WriteMem(4 bytes @ 0xE000EDFC)  returns 0 (0000ms, 0222ms total)
T24F0 000:223 JLINK_GetHWStatus(...)  returns 0x00 (0001ms, 0223ms total)
T24F0 000:224 JLINK_GetNumBPUnits(Type = 0xFFFFFF00)  returns 0x06 (0000ms, 0223ms total)
T24F0 000:224 JLINK_GetNumBPUnits(Type = 0xF0)  returns 0x2000 (0000ms, 0223ms total)
T24F0 000:224 JLINK_GetNumWPUnits()  returns 0x04 (0000ms, 0223ms total)
T24F0 000:224 JLINK_GetSpeed()  returns 0x1388 (0000ms, 0223ms total)
T24F0 000:224 JLINK_ReadMemU32(0xE000E004, 0x0001 Items, ...) -- CPU_ReadMem(4 bytes @ 0xE000E004) - Data: 01 00 00 00  returns 1 (0000ms, 0223ms total)
T24F0 000:224 JLINK_ReadMemU32(0xE000E004, 0x0001 Items, ...) -- CPU_ReadMem(4 bytes @ 0xE000E004) - Data: 01 00 00 00  returns 1 (0001ms, 0224ms total)
T24F0 000:225 JLINK_WriteMemEx(0xE0001000, 0x001C Bytes, ..., Flags = 0x02000004) - Data: 01 00 00 00 00 00 00 00 00 00 00 00 00 00 00 00 ... -- CPU_WriteMem(28 bytes @ 0xE0001000)  returns 0x1C (0001ms, 0225ms total)
T24F0 000:226 JLINK_ReadReg(R15 (PC))  returns 0x08000144 (0000ms, 0225ms total)
T24F0 000:226 JLINK_ReadReg(XPSR)  returns 0x01000000 (0000ms, 0225ms total)
T24F0 000:476 JLINK_SetResetType(JLINKARM_CM3_RESET_TYPE_NORMAL)  returns JLINKARM_CM3_RESET_TYPE_NORMAL (0000ms, 0225ms total)
T24F0 000:476 JLINK_Reset() -- CPU_WriteMem(4 bytes @ 0xE000EDF0) -- CPU_WriteMem(4 bytes @ 0xE000EDFC)Reset: Halt core after reset via DEMCR.VC_CORERESET.Reset: Reset device via AIRCR.SYSRESETREQ. -- CPU_WriteMem(4 bytes @ 0xE000ED0C) -- CPU_ReadMem(4 bytes @ 0xE000EDF0) -- CPU_ReadMem(4 bytes @ 0xE000EDF0) -- CPU_WriteMem(4 bytes @ 0xE000EDF0) -- CPU_WriteMem(4 bytes @ 0xE000EDFC) -- CPU_ReadMem(4 bytes @ 0xE000EDF0) -- CPU_WriteMem(4 bytes @ 0xE000EDFC) -- CPU_WriteMem(4 bytes @ 0xE0001028)
 -- CPU_WriteMem(4 bytes @ 0xE0001038) -- CPU_WriteMem(4 bytes @ 0xE0001048) -- CPU_WriteMem(4 bytes @ 0xE0001058) -- CPU_WriteMem(4 bytes @ 0xE0002000) -- CPU_ReadMem(4 bytes @ 0xE000EDFC) -- CPU_ReadMem(4 bytes @ 0xE0001000) (0069ms, 0294ms total)
T24F0 000:545 JLINK_ReadReg(R15 (PC))  returns 0x08000144 (0000ms, 0294ms total)
T24F0 000:545 JLINK_ReadReg(XPSR)  returns 0x01000000 (0000ms, 0294ms total)
T24F0 000:545 JLINK_ReadMemEx(0x08000144, 0x003C Bytes, ..., Flags = 0x02000000) -- CPU_ReadMem(64 bytes @ 0x08000140) -- Updating C cache (64 bytes @ 0x08000140) -- Read from C cache (60 bytes @ 0x08000144) - Data: 06 48 80 47 06 48 00 47 FE E7 FE E7 FE E7 FE E7 ...  returns 0x3C (0002ms, 0296ms total)
T24F0 002:024 JLINK_ReadReg(R0)  returns 0x00000000 (0000ms, 0296ms total)
T24F0 002:024 JLINK_ReadReg(R1)  returns 0x00000003 (0000ms, 0296ms total)
T24F0 002:025 JLINK_ReadReg(R2)  returns 0x40022000 (0000ms, 0297ms total)
T24F0 002:025 JLINK_ReadReg(R3)  returns 0x04C11DB7 (0000ms, 0297ms total)
T24F0 002:025 JLINK_ReadReg(R4)  returns 0x00000000 (0000ms, 0297ms total)
T24F0 002:025 JLINK_ReadReg(R5)  returns 0x00000000 (0000ms, 0297ms total)
T24F0 002:025 JLINK_ReadReg(R6)  returns 0x00000000 (0000ms, 0297ms total)
T24F0 002:025 JLINK_ReadReg(R7)  returns 0x00000000 (0000ms, 0297ms total)
T24F0 002:025 JLINK_ReadReg(R8)  returns 0x00000000 (0000ms, 0297ms total)
T24F0 002:025 JLINK_ReadReg(R9)  returns 0x20000160 (0000ms, 0297ms total)
T24F0 002:025 JLINK_ReadReg(R10)  returns 0x00000000 (0000ms, 0297ms total)
T24F0 002:025 JLINK_ReadReg(R11)  returns 0x00000000 (0000ms, 0297ms total)
T24F0 002:025 JLINK_ReadReg(R12)  returns 0x00000000 (0000ms, 0297ms total)
T24F0 002:025 JLINK_ReadReg(R13 (SP))  returns 0x2000F5C0 (0000ms, 0297ms total)
T24F0 002:025 JLINK_ReadReg(R14)  returns 0xFFFFFFFF (0000ms, 0297ms total)
T24F0 002:025 JLINK_ReadReg(R15 (PC))  returns 0x08000144 (0000ms, 0297ms total)
T24F0 002:025 JLINK_ReadReg(XPSR)  returns 0x01000000 (0000ms, 0297ms total)
T24F0 002:025 JLINK_ReadReg(MSP)  returns 0x2000F5C0 (0000ms, 0297ms total)
T24F0 002:025 JLINK_ReadReg(PSP)  returns 0x20001000 (0000ms, 0297ms total)
T24F0 002:025 JLINK_ReadReg(CFBP)  returns 0x00000000 (0000ms, 0297ms total)
T29F8 002:142 JLINK_ReadMemEx(0x08000144, 0x0002 Bytes, ..., Flags = 0x02000000) -- Read from C cache (2 bytes @ 0x08000144) - Data: 06 48  returns 0x02 (0000ms, 0297ms total)
T29F8 002:142 JLINK_SetBPEx(Addr = 0x0801D744, Type = 0xFFFFFFF2)  returns 0x00000001 (0000ms, 0297ms total)
T29F8 002:142 JLINK_SetBPEx(Addr = 0x080022E6, Type = 0xFFFFFFF2)  returns 0x00000002 (0000ms, 0297ms total)
T29F8 002:142 JLINK_SetBPEx(Addr = 0x08010C26, Type = 0xFFFFFFF2)  returns 0x00000003 (0000ms, 0297ms total)
T29F8 002:142 JLINK_Go() -- CPU_ReadMem(4 bytes @ 0xE0001000) -- CPU_WriteMem(4 bytes @ 0xE0002008) -- CPU_WriteMem(4 bytes @ 0xE000200C) -- CPU_WriteMem(4 bytes @ 0xE0002010) -- CPU_WriteMem(4 bytes @ 0xE0002014) -- CPU_WriteMem(4 bytes @ 0xE0002018) -- CPU_WriteMem(4 bytes @ 0xE000201C) -- CPU_WriteMem(4 bytes @ 0xE0001004) (0003ms, 0300ms total)
T29F8 002:246 JLINK_IsHalted()  returns TRUE (0002ms, 0302ms total)
T29F8 002:248 JLINK_Halt()  returns 0x00 (0000ms, 0300ms total)
T29F8 002:248 JLINK_IsHalted()  returns TRUE (0000ms, 0300ms total)
T29F8 002:248 JLINK_IsHalted()  returns TRUE (0000ms, 0300ms total)
T29F8 002:248 JLINK_IsHalted()  returns TRUE (0000ms, 0300ms total)
T29F8 002:248 JLINK_ReadReg(R15 (PC))  returns 0x0801D744 (0000ms, 0300ms total)
T29F8 002:248 JLINK_ReadReg(XPSR)  returns 0x61000000 (0000ms, 0300ms total)
T29F8 002:248 JLINK_ClrBPEx(BPHandle = 0x00000001)  returns 0x00 (0000ms, 0300ms total)
T29F8 002:248 JLINK_ClrBPEx(BPHandle = 0x00000002)  returns 0x00 (0000ms, 0300ms total)
T29F8 002:248 JLINK_ClrBPEx(BPHandle = 0x00000003)  returns 0x00 (0000ms, 0300ms total)
T29F8 002:248 JLINK_ReadMemU32(0xE000ED30, 0x0001 Items, ...) -- CPU_ReadMem(4 bytes @ 0xE000ED30) - Data: 02 00 00 00  returns 1 (0001ms, 0301ms total)
T29F8 002:249 JLINK_ReadMemU32(0xE0001028, 0x0001 Items, ...) -- CPU_ReadMem(4 bytes @ 0xE0001028) - Data: 00 00 00 00  returns 1 (0002ms, 0303ms total)
T29F8 002:251 JLINK_ReadMemU32(0xE0001038, 0x0001 Items, ...) -- CPU_ReadMem(4 bytes @ 0xE0001038) - Data: 00 02 00 00  returns 1 (0001ms, 0304ms total)
T29F8 002:252 JLINK_ReadMemU32(0xE0001048, 0x0001 Items, ...) -- CPU_ReadMem(4 bytes @ 0xE0001048) - Data: 00 00 00 00  returns 1 (0000ms, 0304ms total)
T29F8 002:252 JLINK_ReadMemU32(0xE0001058, 0x0001 Items, ...) -- CPU_ReadMem(4 bytes @ 0xE0001058) - Data: 00 00 00 00  returns 1 (0001ms, 0305ms total)
T29F8 002:253 JLINK_ReadReg(R0)  returns 0x0801D745 (0000ms, 0305ms total)
T29F8 002:253 JLINK_ReadReg(R1)  returns 0x2000F5C0 (0000ms, 0305ms total)
T29F8 002:253 JLINK_ReadReg(R2)  returns 0x00000000 (0000ms, 0305ms total)
T29F8 002:253 JLINK_ReadReg(R3)  returns 0x080049F1 (0000ms, 0305ms total)
T29F8 002:253 JLINK_ReadReg(R4)  returns 0x0806EE9C (0000ms, 0305ms total)
T29F8 002:253 JLINK_ReadReg(R5)  returns 0x0806EE9C (0000ms, 0305ms total)
T29F8 002:253 JLINK_ReadReg(R6)  returns 0x00000000 (0000ms, 0305ms total)
T29F8 002:253 JLINK_ReadReg(R7)  returns 0x00000000 (0000ms, 0305ms total)
T29F8 002:253 JLINK_ReadReg(R8)  returns 0x00000000 (0000ms, 0305ms total)
T29F8 002:253 JLINK_ReadReg(R9)  returns 0x20000160 (0000ms, 0305ms total)
T29F8 002:253 JLINK_ReadReg(R10)  returns 0x00000000 (0000ms, 0305ms total)
T29F8 002:253 JLINK_ReadReg(R11)  returns 0x00000000 (0000ms, 0305ms total)
T29F8 002:253 JLINK_ReadReg(R12)  returns 0x00000000 (0000ms, 0305ms total)
T29F8 002:253 JLINK_ReadReg(R13 (SP))  returns 0x2000F5C0 (0000ms, 0305ms total)
T29F8 002:253 JLINK_ReadReg(R14)  returns 0x080018DD (0000ms, 0305ms total)
T29F8 002:253 JLINK_ReadReg(R15 (PC))  returns 0x0801D744 (0000ms, 0305ms total)
T29F8 002:253 JLINK_ReadReg(XPSR)  returns 0x61000000 (0000ms, 0305ms total)
T29F8 002:253 JLINK_ReadReg(MSP)  returns 0x2000F5C0 (0000ms, 0305ms total)
T29F8 002:253 JLINK_ReadReg(PSP)  returns 0x20001000 (0000ms, 0305ms total)
T29F8 002:253 JLINK_ReadReg(CFBP)  returns 0x00000000 (0000ms, 0305ms total)
T24F0 002:256 JLINK_ReadMemEx(0x0801D650, 0x003C Bytes, ..., Flags = 0x02000000) -- CPU_ReadMem(128 bytes @ 0x0801D640) -- Updating C cache (128 bytes @ 0x0801D640) -- Read from C cache (60 bytes @ 0x0801D650) - Data: 2D E9 F0 41 04 46 30 48 00 25 81 42 05 DA 21 F0 ...  returns 0x3C (0001ms, 0306ms total)
T24F0 002:257 JLINK_ReadMemEx(0x0801D68C, 0x003C Bytes, ..., Flags = 0x02000000) -- CPU_ReadMem(64 bytes @ 0x0801D6C0) -- Updating C cache (64 bytes @ 0x0801D6C0) -- Read from C cache (60 bytes @ 0x0801D68C) - Data: F0 41 E7 F7 CC B8 02 20 E7 F7 B4 F9 E7 F7 BC F8 ...  returns 0x3C (0001ms, 0307ms total)
T24F0 002:258 JLINK_ReadMemEx(0x0801D6C8, 0x003C Bytes, ..., Flags = 0x02000000) -- CPU_ReadMem(64 bytes @ 0x0801D700) -- Updating C cache (64 bytes @ 0x0801D700) -- Read from C cache (60 bytes @ 0x0801D6C8) - Data: 10 44 E3 F7 C6 F9 06 46 0F 46 29 46 20 46 FF F7 ...  returns 0x3C (0001ms, 0308ms total)
T24F0 002:259 JLINK_ReadMemEx(0x0801D704, 0x003C Bytes, ..., Flags = 0x02000000) -- Read from C cache (60 bytes @ 0x0801D704) - Data: 39 46 E3 F7 95 F8 2A 46 23 46 BD E8 F0 41 E2 F7 ...  returns 0x3C (0000ms, 0308ms total)
T24F0 002:259 JLINK_ReadMemEx(0x0801D742, 0x0002 Bytes, ..., Flags = 0x02000000) -- CPU_ReadMem(64 bytes @ 0x0801D740) -- Updating C cache (64 bytes @ 0x0801D740) -- Read from C cache (2 bytes @ 0x0801D742) - Data: 00 20  returns 0x02 (0001ms, 0309ms total)
T24F0 002:260 JLINK_ReadMemEx(0x0801D744, 0x003C Bytes, ..., Flags = 0x02000000) -- Read from C cache (60 bytes @ 0x0801D744) - Data: 10 B5 FC F7 FF F9 02 F0 AD F9 08 F0 7F FC 03 F0 ...  returns 0x3C (0000ms, 0309ms total)
T29F8 003:584 JLINK_ReadMemEx(0x0801D744, 0x0002 Bytes, ..., Flags = 0x02000000) -- Read from C cache (2 bytes @ 0x0801D744) - Data: 10 B5  returns 0x02 (0000ms, 0309ms total)
T29F8 003:584 JLINK_SetBPEx(Addr = 0x080022E6, Type = 0xFFFFFFF2)  returns 0x00000004 (0001ms, 0310ms total)
T29F8 003:585 JLINK_SetBPEx(Addr = 0x08010C26, Type = 0xFFFFFFF2)  returns 0x00000005 (0000ms, 0310ms total)
T29F8 003:585 JLINK_Go() -- CPU_ReadMem(4 bytes @ 0xE0001000) -- CPU_WriteMem(4 bytes @ 0xE0002008) -- CPU_WriteMem(4 bytes @ 0xE000200C) -- CPU_WriteMem(4 bytes @ 0xE0002010) (0004ms, 0314ms total)
T29F8 003:690 JLINK_IsHalted()  returns FALSE (0001ms, 0315ms total)
T29F8 003:791 JLINK_IsHalted()  returns FALSE (0000ms, 0314ms total)
T29F8 003:892 JLINK_IsHalted()  returns FALSE (0000ms, 0314ms total)
T29F8 003:993 JLINK_IsHalted()  returns FALSE (0000ms, 0314ms total)
T29F8 004:094 JLINK_IsHalted()  returns FALSE (0001ms, 0315ms total)
T29F8 004:195 JLINK_ReadMemU32(0xE0001004, 0x0001 Items, ...) -- CPU_ReadMem(4 bytes @ 0xE0001004) - Data: CE 68 9D 02  returns 1 (0001ms, 0315ms total)
T29F8 004:200 JLINK_IsHalted()  returns FALSE (0001ms, 0316ms total)
T29F8 004:302 JLINK_IsHalted()  returns FALSE (0001ms, 0316ms total)
T29F8 004:404 JLINK_IsHalted()  returns FALSE (0000ms, 0315ms total)
T29F8 004:505 JLINK_IsHalted()  returns FALSE (0000ms, 0315ms total)
T29F8 004:606 JLINK_IsHalted()  returns FALSE (0001ms, 0316ms total)
T29F8 004:708 JLINK_ReadMemU32(0xE0001004, 0x0001 Items, ...) - Data: CE 68 9D 02  returns 1 (0000ms, 0315ms total)
T29F8 004:708 JLINK_IsHalted()  returns FALSE (0001ms, 0316ms total)
T29F8 004:809 JLINK_IsHalted()  returns FALSE (0000ms, 0315ms total)
T29F8 004:910 JLINK_IsHalted()  returns FALSE (0000ms, 0315ms total)
T29F8 005:012 JLINK_IsHalted()  returns FALSE (0000ms, 0315ms total)
T29F8 005:113 JLINK_IsHalted()  returns FALSE (0000ms, 0315ms total)
T29F8 005:214 JLINK_IsHalted()  returns FALSE (0000ms, 0315ms total)
T29F8 005:316 JLINK_ReadMemU32(0xE0001004, 0x0001 Items, ...) - Data: CE 68 9D 02  returns 1 (0000ms, 0315ms total)
T29F8 005:316 JLINK_IsHalted()  returns FALSE (0000ms, 0315ms total)
T29F8 005:417 JLINK_IsHalted()  returns FALSE (0000ms, 0315ms total)
T29F8 005:518 JLINK_IsHalted()  returns FALSE (0000ms, 0315ms total)
T29F8 005:619 JLINK_IsHalted()  returns FALSE (0000ms, 0315ms total)
T29F8 005:721 JLINK_IsHalted()  returns FALSE (0000ms, 0315ms total)
T29F8 005:822 JLINK_ReadMemU32(0xE0001004, 0x0001 Items, ...) - Data: CE 68 9D 02  returns 1 (0000ms, 0315ms total)
T29F8 005:823 JLINK_IsHalted()  returns FALSE (0001ms, 0316ms total)
T29F8 005:925 JLINK_IsHalted()  returns FALSE (0000ms, 0315ms total)
T29F8 006:026 JLINK_IsHalted()  returns FALSE (0000ms, 0315ms total)
T29F8 006:128 JLINK_IsHalted()  returns FALSE (0001ms, 0316ms total)
T29F8 006:230 JLINK_IsHalted()  returns FALSE (0001ms, 0316ms total)
T29F8 006:332 JLINK_IsHalted()  returns FALSE (0000ms, 0315ms total)
T29F8 006:432 JLINK_ReadMemU32(0xE0001004, 0x0001 Items, ...) - Data: CE 68 9D 02  returns 1 (0000ms, 0315ms total)
T29F8 006:432 JLINK_IsHalted()  returns FALSE (0000ms, 0315ms total)
T29F8 006:534 JLINK_IsHalted()  returns FALSE (0000ms, 0315ms total)
T29F8 006:635 JLINK_IsHalted()  returns FALSE (0000ms, 0315ms total)
T29F8 006:736 JLINK_IsHalted()  returns FALSE (0000ms, 0315ms total)
T29F8 006:837 JLINK_IsHalted()  returns FALSE (0000ms, 0315ms total)
T29F8 006:939 JLINK_IsHalted()  returns FALSE (0000ms, 0315ms total)
T29F8 007:040 JLINK_ReadMemU32(0xE0001004, 0x0001 Items, ...) - Data: CE 68 9D 02  returns 1 (0000ms, 0315ms total)
T29F8 007:040 JLINK_IsHalted()  returns FALSE (0001ms, 0316ms total)
T29F8 007:141 JLINK_IsHalted()  returns FALSE (0000ms, 0315ms total)
T29F8 007:243 JLINK_IsHalted()  returns FALSE (0000ms, 0315ms total)
T29F8 007:344 JLINK_Halt()  returns 0x00 (0002ms, 0317ms total)
T29F8 007:346 JLINK_IsHalted()  returns TRUE (0000ms, 0317ms total)
T29F8 007:346 JLINK_IsHalted()  returns TRUE (0000ms, 0317ms total)
T29F8 007:346 JLINK_IsHalted()  returns TRUE (0000ms, 0317ms total)
T29F8 007:346 JLINK_ReadReg(R15 (PC))  returns 0x0801BC8C (0000ms, 0317ms total)
T29F8 007:346 JLINK_ReadReg(XPSR)  returns 0x01000000 (0000ms, 0317ms total)
T29F8 007:346 JLINK_ClrBPEx(BPHandle = 0x00000004)  returns 0x00 (0000ms, 0317ms total)
T29F8 007:346 JLINK_ClrBPEx(BPHandle = 0x00000005)  returns 0x00 (0000ms, 0317ms total)
T29F8 007:347 JLINK_ReadMemU32(0xE000ED30, 0x0001 Items, ...) -- CPU_ReadMem(4 bytes @ 0xE000ED30) - Data: 01 00 00 00  returns 1 (0000ms, 0318ms total)
T29F8 007:347 JLINK_ReadMemU32(0xE0001028, 0x0001 Items, ...) -- CPU_ReadMem(4 bytes @ 0xE0001028) - Data: 00 00 00 00  returns 1 (0001ms, 0319ms total)
T29F8 007:348 JLINK_ReadMemU32(0xE0001038, 0x0001 Items, ...) -- CPU_ReadMem(4 bytes @ 0xE0001038) - Data: 00 02 00 00  returns 1 (0001ms, 0320ms total)
T29F8 007:349 JLINK_ReadMemU32(0xE0001048, 0x0001 Items, ...) -- CPU_ReadMem(4 bytes @ 0xE0001048) - Data: 00 00 00 00  returns 1 (0001ms, 0321ms total)
T29F8 007:350 JLINK_ReadMemU32(0xE0001058, 0x0001 Items, ...) -- CPU_ReadMem(4 bytes @ 0xE0001058) - Data: 00 00 00 00  returns 1 (0000ms, 0321ms total)
T29F8 007:351 JLINK_ReadReg(R0)  returns 0x00000000 (0000ms, 0321ms total)
T29F8 007:351 JLINK_ReadReg(R1)  returns 0x01010101 (0000ms, 0321ms total)
T29F8 007:351 JLINK_ReadReg(R2)  returns 0x02020202 (0000ms, 0321ms total)
T29F8 007:351 JLINK_ReadReg(R3)  returns 0x03030303 (0000ms, 0321ms total)
T29F8 007:351 JLINK_ReadReg(R4)  returns 0x04040404 (0000ms, 0321ms total)
T29F8 007:351 JLINK_ReadReg(R5)  returns 0x05050505 (0000ms, 0321ms total)
T29F8 007:351 JLINK_ReadReg(R6)  returns 0x06060606 (0000ms, 0321ms total)
T29F8 007:351 JLINK_ReadReg(R7)  returns 0x07070707 (0000ms, 0321ms total)
T29F8 007:351 JLINK_ReadReg(R8)  returns 0x08080808 (0000ms, 0321ms total)
T29F8 007:351 JLINK_ReadReg(R9)  returns 0x09090909 (0000ms, 0321ms total)
T29F8 007:351 JLINK_ReadReg(R10)  returns 0x10101010 (0000ms, 0321ms total)
T29F8 007:351 JLINK_ReadReg(R11)  returns 0x11111111 (0000ms, 0321ms total)
T29F8 007:351 JLINK_ReadReg(R12)  returns 0x12121212 (0000ms, 0321ms total)
T29F8 007:351 JLINK_ReadReg(R13 (SP))  returns 0x2000BF38 (0000ms, 0321ms total)
T29F8 007:351 JLINK_ReadReg(R14)  returns 0x08026CC7 (0000ms, 0321ms total)
T29F8 007:351 JLINK_ReadReg(R15 (PC))  returns 0x0801BC8C (0000ms, 0321ms total)
T29F8 007:351 JLINK_ReadReg(XPSR)  returns 0x01000000 (0000ms, 0321ms total)
T29F8 007:351 JLINK_ReadReg(MSP)  returns 0x2000F588 (0000ms, 0321ms total)
T29F8 007:351 JLINK_ReadReg(PSP)  returns 0x2000BF38 (0000ms, 0321ms total)
T29F8 007:351 JLINK_ReadReg(CFBP)  returns 0x02000000 (0000ms, 0321ms total)
T24F0 007:362 JLINK_ReadMemEx(0x0801BC8C, 0x003C Bytes, ..., Flags = 0x02000000) -- CPU_ReadMem(128 bytes @ 0x0801BC80) -- Updating C cache (128 bytes @ 0x0801BC80) -- Read from C cache (60 bytes @ 0x0801BC8C) - Data: FE E7 00 00 1F B5 00 20 08 49 09 68 08 4A 12 68 ...  returns 0x3C (0002ms, 0323ms total)
T29F8 011:568 JLINK_ReadMemEx(0x0801BC8C, 0x0002 Bytes, ..., Flags = 0x02000000) -- Read from C cache (2 bytes @ 0x0801BC8C) - Data: FE E7  returns 0x02 (0000ms, 0323ms total)
T29F8 011:568 JLINK_Step() -- Read from C cache (2 bytes @ 0x0801BC8C) -- CPU_ReadMem(4 bytes @ 0xE000ED18) -- CPU_WriteMem(4 bytes @ 0xE000ED18) -- CPU_ReadMem(4 bytes @ 0xE000ED18) -- CPU_WriteMem(4 bytes @ 0xE000ED18) -- CPU_ReadMem(4 bytes @ 0xE0001004) -- Simulated  returns 0x00 (0005ms, 0328ms total)
T29F8 011:573 JLINK_ReadReg(R15 (PC))  returns 0x0801BC8C (0000ms, 0328ms total)
T29F8 011:573 JLINK_ReadReg(XPSR)  returns 0x01000000 (0000ms, 0328ms total)
T29F8 011:573 JLINK_ReadMemEx(0x0801BC8A, 0x0002 Bytes, ..., Flags = 0x02000000) -- Read from C cache (2 bytes @ 0x0801BC8A) - Data: 00 BF  returns 0x02 (0000ms, 0328ms total)
T29F8 011:573 JLINK_ReadMemEx(0x0801BC8C, 0x003C Bytes, ..., Flags = 0x02000000) -- Read from C cache (60 bytes @ 0x0801BC8C) - Data: FE E7 00 00 1F B5 00 20 08 49 09 68 08 4A 12 68 ...  returns 0x3C (0000ms, 0328ms total)
T29F8 011:573 JLINK_ReadMemEx(0x0801BC8C, 0x0002 Bytes, ..., Flags = 0x02000000) -- Read from C cache (2 bytes @ 0x0801BC8C) - Data: FE E7  returns 0x02 (0000ms, 0328ms total)
T29F8 011:574 JLINK_ReadReg(R0)  returns 0x00000000 (0000ms, 0328ms total)
T29F8 011:574 JLINK_ReadReg(R1)  returns 0x01010101 (0000ms, 0328ms total)
T29F8 011:574 JLINK_ReadReg(R2)  returns 0x02020202 (0000ms, 0328ms total)
T29F8 011:574 JLINK_ReadReg(R3)  returns 0x03030303 (0000ms, 0328ms total)
T29F8 011:574 JLINK_ReadReg(R4)  returns 0x04040404 (0000ms, 0328ms total)
T29F8 011:574 JLINK_ReadReg(R5)  returns 0x05050505 (0000ms, 0328ms total)
T29F8 011:574 JLINK_ReadReg(R6)  returns 0x06060606 (0000ms, 0328ms total)
T29F8 011:574 JLINK_ReadReg(R7)  returns 0x07070707 (0000ms, 0328ms total)
T29F8 011:574 JLINK_ReadReg(R8)  returns 0x08080808 (0000ms, 0328ms total)
T29F8 011:574 JLINK_ReadReg(R9)  returns 0x09090909 (0000ms, 0328ms total)
T29F8 011:574 JLINK_ReadReg(R10)  returns 0x10101010 (0000ms, 0328ms total)
T29F8 011:574 JLINK_ReadReg(R11)  returns 0x11111111 (0000ms, 0328ms total)
T29F8 011:574 JLINK_ReadReg(R12)  returns 0x12121212 (0000ms, 0328ms total)
T29F8 011:574 JLINK_ReadReg(R13 (SP))  returns 0x2000BF38 (0000ms, 0328ms total)
T29F8 011:574 JLINK_ReadReg(R14)  returns 0x08026CC7 (0000ms, 0328ms total)
T29F8 011:574 JLINK_ReadReg(R15 (PC))  returns 0x0801BC8C (0000ms, 0328ms total)
T29F8 011:574 JLINK_ReadReg(XPSR)  returns 0x01000000 (0000ms, 0328ms total)
T29F8 011:574 JLINK_ReadReg(MSP)  returns 0x2000F588 (0000ms, 0328ms total)
T29F8 011:574 JLINK_ReadReg(PSP)  returns 0x2000BF38 (0000ms, 0328ms total)
T29F8 011:574 JLINK_ReadReg(CFBP)  returns 0x02000000 (0000ms, 0328ms total)
T29F8 011:906 JLINK_ReadMemEx(0x0801BC8C, 0x003C Bytes, ..., Flags = 0x02000000) -- Read from C cache (60 bytes @ 0x0801BC8C) - Data: FE E7 00 00 1F B5 00 20 08 49 09 68 08 4A 12 68 ...  returns 0x3C (0000ms, 0328ms total)
T29F8 011:906 JLINK_ReadMemEx(0x0801BC8C, 0x0002 Bytes, ..., Flags = 0x02000000) -- Read from C cache (2 bytes @ 0x0801BC8C) - Data: FE E7  returns 0x02 (0000ms, 0328ms total)
T29F8 011:906 JLINK_Step() -- Read from C cache (2 bytes @ 0x0801BC8C) -- Simulated  returns 0x00 (0000ms, 0328ms total)
T29F8 011:906 JLINK_ReadReg(R15 (PC))  returns 0x0801BC8C (0000ms, 0328ms total)
T29F8 011:906 JLINK_ReadReg(XPSR)  returns 0x01000000 (0000ms, 0328ms total)
T29F8 011:906 JLINK_ReadMemEx(0x0801BC8A, 0x0002 Bytes, ..., Flags = 0x02000000) -- Read from C cache (2 bytes @ 0x0801BC8A) - Data: 00 BF  returns 0x02 (0000ms, 0328ms total)
T29F8 011:906 JLINK_ReadMemEx(0x0801BC8C, 0x003C Bytes, ..., Flags = 0x02000000) -- Read from C cache (60 bytes @ 0x0801BC8C) - Data: FE E7 00 00 1F B5 00 20 08 49 09 68 08 4A 12 68 ...  returns 0x3C (0000ms, 0328ms total)
T29F8 011:906 JLINK_ReadMemEx(0x0801BC8C, 0x0002 Bytes, ..., Flags = 0x02000000) -- Read from C cache (2 bytes @ 0x0801BC8C) - Data: FE E7  returns 0x02 (0000ms, 0328ms total)
T29F8 011:906 JLINK_ReadReg(R0)  returns 0x00000000 (0000ms, 0328ms total)
T29F8 011:906 JLINK_ReadReg(R1)  returns 0x01010101 (0000ms, 0328ms total)
T29F8 011:906 JLINK_ReadReg(R2)  returns 0x02020202 (0000ms, 0328ms total)
T29F8 011:906 JLINK_ReadReg(R3)  returns 0x03030303 (0000ms, 0328ms total)
T29F8 011:906 JLINK_ReadReg(R4)  returns 0x04040404 (0000ms, 0328ms total)
T29F8 011:906 JLINK_ReadReg(R5)  returns 0x05050505 (0000ms, 0328ms total)
T29F8 011:906 JLINK_ReadReg(R6)  returns 0x06060606 (0000ms, 0328ms total)
T29F8 011:906 JLINK_ReadReg(R7)  returns 0x07070707 (0000ms, 0328ms total)
T29F8 011:906 JLINK_ReadReg(R8)  returns 0x08080808 (0000ms, 0328ms total)
T29F8 011:906 JLINK_ReadReg(R9)  returns 0x09090909 (0000ms, 0328ms total)
T29F8 011:906 JLINK_ReadReg(R10)  returns 0x10101010 (0000ms, 0328ms total)
T29F8 011:906 JLINK_ReadReg(R11)  returns 0x11111111 (0000ms, 0328ms total)
T29F8 011:906 JLINK_ReadReg(R12)  returns 0x12121212 (0000ms, 0328ms total)
T29F8 011:906 JLINK_ReadReg(R13 (SP))  returns 0x2000BF38 (0000ms, 0328ms total)
T29F8 011:906 JLINK_ReadReg(R14)  returns 0x08026CC7 (0001ms, 0329ms total)
T29F8 011:907 JLINK_ReadReg(R15 (PC))  returns 0x0801BC8C (0000ms, 0329ms total)
T29F8 011:907 JLINK_ReadReg(XPSR)  returns 0x01000000 (0000ms, 0329ms total)
T29F8 011:907 JLINK_ReadReg(MSP)  returns 0x2000F588 (0000ms, 0329ms total)
T29F8 011:907 JLINK_ReadReg(PSP)  returns 0x2000BF38 (0000ms, 0329ms total)
T29F8 011:907 JLINK_ReadReg(CFBP)  returns 0x02000000 (0000ms, 0329ms total)
T29F8 012:295 JLINK_ReadMemEx(0x0801BC8C, 0x003C Bytes, ..., Flags = 0x02000000) -- Read from C cache (60 bytes @ 0x0801BC8C) - Data: FE E7 00 00 1F B5 00 20 08 49 09 68 08 4A 12 68 ...  returns 0x3C (0000ms, 0329ms total)
T29F8 012:295 JLINK_ReadMemEx(0x0801BC8C, 0x0002 Bytes, ..., Flags = 0x02000000) -- Read from C cache (2 bytes @ 0x0801BC8C) - Data: FE E7  returns 0x02 (0000ms, 0329ms total)
T29F8 012:295 JLINK_Step() -- Read from C cache (2 bytes @ 0x0801BC8C) -- Simulated  returns 0x00 (0001ms, 0330ms total)
T29F8 012:296 JLINK_ReadReg(R15 (PC))  returns 0x0801BC8C (0000ms, 0330ms total)
T29F8 012:296 JLINK_ReadReg(XPSR)  returns 0x01000000 (0000ms, 0330ms total)
T29F8 012:296 JLINK_ReadMemEx(0x0801BC8A, 0x0002 Bytes, ..., Flags = 0x02000000) -- Read from C cache (2 bytes @ 0x0801BC8A) - Data: 00 BF  returns 0x02 (0000ms, 0330ms total)
T29F8 012:296 JLINK_ReadMemEx(0x0801BC8C, 0x003C Bytes, ..., Flags = 0x02000000) -- Read from C cache (60 bytes @ 0x0801BC8C) - Data: FE E7 00 00 1F B5 00 20 08 49 09 68 08 4A 12 68 ...  returns 0x3C (0000ms, 0330ms total)
T29F8 012:296 JLINK_ReadMemEx(0x0801BC8C, 0x0002 Bytes, ..., Flags = 0x02000000) -- Read from C cache (2 bytes @ 0x0801BC8C) - Data: FE E7  returns 0x02 (0000ms, 0330ms total)
T29F8 012:296 JLINK_ReadReg(R0)  returns 0x00000000 (0000ms, 0330ms total)
T29F8 012:296 JLINK_ReadReg(R1)  returns 0x01010101 (0000ms, 0330ms total)
T29F8 012:296 JLINK_ReadReg(R2)  returns 0x02020202 (0000ms, 0330ms total)
T29F8 012:296 JLINK_ReadReg(R3)  returns 0x03030303 (0000ms, 0330ms total)
T29F8 012:296 JLINK_ReadReg(R4)  returns 0x04040404 (0000ms, 0330ms total)
T29F8 012:296 JLINK_ReadReg(R5)  returns 0x05050505 (0000ms, 0330ms total)
T29F8 012:296 JLINK_ReadReg(R6)  returns 0x06060606 (0000ms, 0330ms total)
T29F8 012:296 JLINK_ReadReg(R7)  returns 0x07070707 (0000ms, 0330ms total)
T29F8 012:296 JLINK_ReadReg(R8)  returns 0x08080808 (0000ms, 0330ms total)
T29F8 012:296 JLINK_ReadReg(R9)  returns 0x09090909 (0000ms, 0330ms total)
T29F8 012:296 JLINK_ReadReg(R10)  returns 0x10101010 (0000ms, 0330ms total)
T29F8 012:296 JLINK_ReadReg(R11)  returns 0x11111111 (0000ms, 0330ms total)
T29F8 012:296 JLINK_ReadReg(R12)  returns 0x12121212 (0000ms, 0330ms total)
T29F8 012:296 JLINK_ReadReg(R13 (SP))  returns 0x2000BF38 (0000ms, 0330ms total)
T29F8 012:296 JLINK_ReadReg(R14)  returns 0x08026CC7 (0000ms, 0330ms total)
T29F8 012:296 JLINK_ReadReg(R15 (PC))  returns 0x0801BC8C (0000ms, 0330ms total)
T29F8 012:296 JLINK_ReadReg(XPSR)  returns 0x01000000 (0000ms, 0330ms total)
T29F8 012:296 JLINK_ReadReg(MSP)  returns 0x2000F588 (0000ms, 0330ms total)
T29F8 012:296 JLINK_ReadReg(PSP)  returns 0x2000BF38 (0000ms, 0330ms total)
T29F8 012:296 JLINK_ReadReg(CFBP)  returns 0x02000000 (0000ms, 0330ms total)
T29F8 012:875 JLINK_ReadMemEx(0x0801BC8C, 0x003C Bytes, ..., Flags = 0x02000000) -- Read from C cache (60 bytes @ 0x0801BC8C) - Data: FE E7 00 00 1F B5 00 20 08 49 09 68 08 4A 12 68 ...  returns 0x3C (0000ms, 0330ms total)
T29F8 012:875 JLINK_ReadMemEx(0x0801BC8C, 0x0002 Bytes, ..., Flags = 0x02000000) -- Read from C cache (2 bytes @ 0x0801BC8C) - Data: FE E7  returns 0x02 (0000ms, 0330ms total)
T29F8 012:875 JLINK_Step() -- Read from C cache (2 bytes @ 0x0801BC8C) -- Simulated  returns 0x00 (0001ms, 0331ms total)
T29F8 012:876 JLINK_ReadReg(R15 (PC))  returns 0x0801BC8C (0000ms, 0331ms total)
T29F8 012:876 JLINK_ReadReg(XPSR)  returns 0x01000000 (0000ms, 0331ms total)
T29F8 012:876 JLINK_ReadMemEx(0x0801BC8A, 0x0002 Bytes, ..., Flags = 0x02000000) -- Read from C cache (2 bytes @ 0x0801BC8A) - Data: 00 BF  returns 0x02 (0000ms, 0331ms total)
T29F8 012:876 JLINK_ReadMemEx(0x0801BC8C, 0x003C Bytes, ..., Flags = 0x02000000) -- Read from C cache (60 bytes @ 0x0801BC8C) - Data: FE E7 00 00 1F B5 00 20 08 49 09 68 08 4A 12 68 ...  returns 0x3C (0000ms, 0331ms total)
T29F8 012:876 JLINK_ReadMemEx(0x0801BC8C, 0x0002 Bytes, ..., Flags = 0x02000000) -- Read from C cache (2 bytes @ 0x0801BC8C) - Data: FE E7  returns 0x02 (0000ms, 0331ms total)
T29F8 012:876 JLINK_ReadReg(R0)  returns 0x00000000 (0000ms, 0331ms total)
T29F8 012:876 JLINK_ReadReg(R1)  returns 0x01010101 (0000ms, 0331ms total)
T29F8 012:876 JLINK_ReadReg(R2)  returns 0x02020202 (0000ms, 0331ms total)
T29F8 012:876 JLINK_ReadReg(R3)  returns 0x03030303 (0000ms, 0331ms total)
T29F8 012:876 JLINK_ReadReg(R4)  returns 0x04040404 (0000ms, 0331ms total)
T29F8 012:876 JLINK_ReadReg(R5)  returns 0x05050505 (0000ms, 0331ms total)
T29F8 012:876 JLINK_ReadReg(R6)  returns 0x06060606 (0000ms, 0331ms total)
T29F8 012:876 JLINK_ReadReg(R7)  returns 0x07070707 (0000ms, 0331ms total)
T29F8 012:876 JLINK_ReadReg(R8)  returns 0x08080808 (0000ms, 0331ms total)
T29F8 012:876 JLINK_ReadReg(R9)  returns 0x09090909 (0000ms, 0331ms total)
T29F8 012:876 JLINK_ReadReg(R10)  returns 0x10101010 (0000ms, 0331ms total)
T29F8 012:876 JLINK_ReadReg(R11)  returns 0x11111111 (0000ms, 0331ms total)
T29F8 012:876 JLINK_ReadReg(R12)  returns 0x12121212 (0000ms, 0331ms total)
T29F8 012:876 JLINK_ReadReg(R13 (SP))  returns 0x2000BF38 (0000ms, 0331ms total)
T29F8 012:876 JLINK_ReadReg(R14)  returns 0x08026CC7 (0000ms, 0331ms total)
T29F8 012:876 JLINK_ReadReg(R15 (PC))  returns 0x0801BC8C (0000ms, 0331ms total)
T29F8 012:876 JLINK_ReadReg(XPSR)  returns 0x01000000 (0000ms, 0331ms total)
T29F8 012:876 JLINK_ReadReg(MSP)  returns 0x2000F588 (0000ms, 0331ms total)
T29F8 012:876 JLINK_ReadReg(PSP)  returns 0x2000BF38 (0000ms, 0331ms total)
T29F8 012:876 JLINK_ReadReg(CFBP)  returns 0x02000000 (0000ms, 0331ms total)
T29F8 013:250 JLINK_ReadMemEx(0x0801BC8C, 0x003C Bytes, ..., Flags = 0x02000000) -- Read from C cache (60 bytes @ 0x0801BC8C) - Data: FE E7 00 00 1F B5 00 20 08 49 09 68 08 4A 12 68 ...  returns 0x3C (0000ms, 0331ms total)
T29F8 013:250 JLINK_ReadMemEx(0x0801BC8C, 0x0002 Bytes, ..., Flags = 0x02000000) -- Read from C cache (2 bytes @ 0x0801BC8C) - Data: FE E7  returns 0x02 (0001ms, 0332ms total)
T29F8 013:251 JLINK_Step() -- Read from C cache (2 bytes @ 0x0801BC8C) -- Simulated  returns 0x00 (0000ms, 0332ms total)
T29F8 013:251 JLINK_ReadReg(R15 (PC))  returns 0x0801BC8C (0000ms, 0332ms total)
T29F8 013:251 JLINK_ReadReg(XPSR)  returns 0x01000000 (0000ms, 0332ms total)
T29F8 013:251 JLINK_ReadMemEx(0x0801BC8A, 0x0002 Bytes, ..., Flags = 0x02000000) -- Read from C cache (2 bytes @ 0x0801BC8A) - Data: 00 BF  returns 0x02 (0000ms, 0332ms total)
T29F8 013:251 JLINK_ReadMemEx(0x0801BC8C, 0x003C Bytes, ..., Flags = 0x02000000) -- Read from C cache (60 bytes @ 0x0801BC8C) - Data: FE E7 00 00 1F B5 00 20 08 49 09 68 08 4A 12 68 ...  returns 0x3C (0000ms, 0332ms total)
T29F8 013:251 JLINK_ReadMemEx(0x0801BC8C, 0x0002 Bytes, ..., Flags = 0x02000000) -- Read from C cache (2 bytes @ 0x0801BC8C) - Data: FE E7  returns 0x02 (0000ms, 0332ms total)
T29F8 013:251 JLINK_ReadReg(R0)  returns 0x00000000 (0000ms, 0332ms total)
T29F8 013:251 JLINK_ReadReg(R1)  returns 0x01010101 (0000ms, 0332ms total)
T29F8 013:251 JLINK_ReadReg(R2)  returns 0x02020202 (0000ms, 0332ms total)
T29F8 013:251 JLINK_ReadReg(R3)  returns 0x03030303 (0000ms, 0332ms total)
T29F8 013:251 JLINK_ReadReg(R4)  returns 0x04040404 (0000ms, 0332ms total)
T29F8 013:251 JLINK_ReadReg(R5)  returns 0x05050505 (0000ms, 0332ms total)
T29F8 013:251 JLINK_ReadReg(R6)  returns 0x06060606 (0000ms, 0332ms total)
T29F8 013:251 JLINK_ReadReg(R7)  returns 0x07070707 (0000ms, 0332ms total)
T29F8 013:251 JLINK_ReadReg(R8)  returns 0x08080808 (0000ms, 0332ms total)
T29F8 013:251 JLINK_ReadReg(R9)  returns 0x09090909 (0000ms, 0332ms total)
T29F8 013:251 JLINK_ReadReg(R10)  returns 0x10101010 (0000ms, 0332ms total)
T29F8 013:251 JLINK_ReadReg(R11)  returns 0x11111111 (0000ms, 0332ms total)
T29F8 013:251 JLINK_ReadReg(R12)  returns 0x12121212 (0000ms, 0332ms total)
T29F8 013:251 JLINK_ReadReg(R13 (SP))  returns 0x2000BF38 (0000ms, 0332ms total)
T29F8 013:251 JLINK_ReadReg(R14)  returns 0x08026CC7 (0000ms, 0332ms total)
T29F8 013:251 JLINK_ReadReg(R15 (PC))  returns 0x0801BC8C (0000ms, 0332ms total)
T29F8 013:251 JLINK_ReadReg(XPSR)  returns 0x01000000 (0000ms, 0332ms total)
T29F8 013:251 JLINK_ReadReg(MSP)  returns 0x2000F588 (0000ms, 0332ms total)
T29F8 013:251 JLINK_ReadReg(PSP)  returns 0x2000BF38 (0000ms, 0332ms total)
T29F8 013:251 JLINK_ReadReg(CFBP)  returns 0x02000000 (0000ms, 0332ms total)
T29F8 013:549 JLINK_ReadMemEx(0x0801BC8C, 0x003C Bytes, ..., Flags = 0x02000000) -- Read from C cache (60 bytes @ 0x0801BC8C) - Data: FE E7 00 00 1F B5 00 20 08 49 09 68 08 4A 12 68 ...  returns 0x3C (0000ms, 0332ms total)
T29F8 013:549 JLINK_ReadMemEx(0x0801BC8C, 0x0002 Bytes, ..., Flags = 0x02000000) -- Read from C cache (2 bytes @ 0x0801BC8C) - Data: FE E7  returns 0x02 (0000ms, 0332ms total)
T29F8 013:549 JLINK_Step() -- Read from C cache (2 bytes @ 0x0801BC8C) -- Simulated  returns 0x00 (0002ms, 0334ms total)
T29F8 013:551 JLINK_ReadReg(R15 (PC))  returns 0x0801BC8C (0000ms, 0334ms total)
T29F8 013:551 JLINK_ReadReg(XPSR)  returns 0x01000000 (0000ms, 0334ms total)
T29F8 013:551 JLINK_ReadMemEx(0x0801BC8A, 0x0002 Bytes, ..., Flags = 0x02000000) -- Read from C cache (2 bytes @ 0x0801BC8A) - Data: 00 BF  returns 0x02 (0000ms, 0334ms total)
T29F8 013:551 JLINK_ReadMemEx(0x0801BC8C, 0x003C Bytes, ..., Flags = 0x02000000) -- Read from C cache (60 bytes @ 0x0801BC8C) - Data: FE E7 00 00 1F B5 00 20 08 49 09 68 08 4A 12 68 ...  returns 0x3C (0000ms, 0334ms total)
T29F8 013:551 JLINK_ReadMemEx(0x0801BC8C, 0x0002 Bytes, ..., Flags = 0x02000000) -- Read from C cache (2 bytes @ 0x0801BC8C) - Data: FE E7  returns 0x02 (0000ms, 0334ms total)
T29F8 013:551 JLINK_ReadReg(R0)  returns 0x00000000 (0000ms, 0334ms total)
T29F8 013:551 JLINK_ReadReg(R1)  returns 0x01010101 (0000ms, 0334ms total)
T29F8 013:551 JLINK_ReadReg(R2)  returns 0x02020202 (0000ms, 0334ms total)
T29F8 013:551 JLINK_ReadReg(R3)  returns 0x03030303 (0000ms, 0334ms total)
T29F8 013:551 JLINK_ReadReg(R4)  returns 0x04040404 (0000ms, 0334ms total)
T29F8 013:551 JLINK_ReadReg(R5)  returns 0x05050505 (0000ms, 0334ms total)
T29F8 013:551 JLINK_ReadReg(R6)  returns 0x06060606 (0000ms, 0334ms total)
T29F8 013:551 JLINK_ReadReg(R7)  returns 0x07070707 (0000ms, 0334ms total)
T29F8 013:551 JLINK_ReadReg(R8)  returns 0x08080808 (0000ms, 0334ms total)
T29F8 013:551 JLINK_ReadReg(R9)  returns 0x09090909 (0000ms, 0334ms total)
T29F8 013:551 JLINK_ReadReg(R10)  returns 0x10101010 (0000ms, 0334ms total)
T29F8 013:551 JLINK_ReadReg(R11)  returns 0x11111111 (0000ms, 0334ms total)
T29F8 013:551 JLINK_ReadReg(R12)  returns 0x12121212 (0000ms, 0334ms total)
T29F8 013:551 JLINK_ReadReg(R13 (SP))  returns 0x2000BF38 (0000ms, 0334ms total)
T29F8 013:551 JLINK_ReadReg(R14)  returns 0x08026CC7 (0000ms, 0334ms total)
T29F8 013:551 JLINK_ReadReg(R15 (PC))  returns 0x0801BC8C (0000ms, 0334ms total)
T29F8 013:551 JLINK_ReadReg(XPSR)  returns 0x01000000 (0000ms, 0334ms total)
T29F8 013:551 JLINK_ReadReg(MSP)  returns 0x2000F588 (0000ms, 0334ms total)
T29F8 013:551 JLINK_ReadReg(PSP)  returns 0x2000BF38 (0000ms, 0334ms total)
T29F8 013:551 JLINK_ReadReg(CFBP)  returns 0x02000000 (0000ms, 0334ms total)
T29F8 013:868 JLINK_ReadMemEx(0x0801BC8C, 0x003C Bytes, ..., Flags = 0x02000000) -- Read from C cache (60 bytes @ 0x0801BC8C) - Data: FE E7 00 00 1F B5 00 20 08 49 09 68 08 4A 12 68 ...  returns 0x3C (0000ms, 0334ms total)
T29F8 013:868 JLINK_ReadMemEx(0x0801BC8C, 0x0002 Bytes, ..., Flags = 0x02000000) -- Read from C cache (2 bytes @ 0x0801BC8C) - Data: FE E7  returns 0x02 (0000ms, 0334ms total)
T29F8 013:868 JLINK_Step() -- Read from C cache (2 bytes @ 0x0801BC8C) -- Simulated  returns 0x00 (0000ms, 0334ms total)
T29F8 013:868 JLINK_ReadReg(R15 (PC))  returns 0x0801BC8C (0000ms, 0334ms total)
T29F8 013:868 JLINK_ReadReg(XPSR)  returns 0x01000000 (0000ms, 0334ms total)
T29F8 013:868 JLINK_ReadMemEx(0x0801BC8A, 0x0002 Bytes, ..., Flags = 0x02000000) -- Read from C cache (2 bytes @ 0x0801BC8A) - Data: 00 BF  returns 0x02 (0000ms, 0334ms total)
T29F8 013:868 JLINK_ReadMemEx(0x0801BC8C, 0x003C Bytes, ..., Flags = 0x02000000) -- Read from C cache (60 bytes @ 0x0801BC8C) - Data: FE E7 00 00 1F B5 00 20 08 49 09 68 08 4A 12 68 ...  returns 0x3C (0000ms, 0334ms total)
T29F8 013:868 JLINK_ReadMemEx(0x0801BC8C, 0x0002 Bytes, ..., Flags = 0x02000000) -- Read from C cache (2 bytes @ 0x0801BC8C) - Data: FE E7  returns 0x02 (0000ms, 0334ms total)
T29F8 013:868 JLINK_ReadReg(R0)  returns 0x00000000 (0000ms, 0334ms total)
T29F8 013:868 JLINK_ReadReg(R1)  returns 0x01010101 (0000ms, 0334ms total)
T29F8 013:868 JLINK_ReadReg(R2)  returns 0x02020202 (0000ms, 0334ms total)
T29F8 013:868 JLINK_ReadReg(R3)  returns 0x03030303 (0000ms, 0334ms total)
T29F8 013:868 JLINK_ReadReg(R4)  returns 0x04040404 (0000ms, 0334ms total)
T29F8 013:868 JLINK_ReadReg(R5)  returns 0x05050505 (0000ms, 0334ms total)
T29F8 013:868 JLINK_ReadReg(R6)  returns 0x06060606 (0000ms, 0334ms total)
T29F8 013:868 JLINK_ReadReg(R7)  returns 0x07070707 (0000ms, 0334ms total)
T29F8 013:868 JLINK_ReadReg(R8)  returns 0x08080808 (0000ms, 0334ms total)
T29F8 013:868 JLINK_ReadReg(R9)  returns 0x09090909 (0000ms, 0334ms total)
T29F8 013:868 JLINK_ReadReg(R10)  returns 0x10101010 (0000ms, 0334ms total)
T29F8 013:868 JLINK_ReadReg(R11)  returns 0x11111111 (0000ms, 0334ms total)
T29F8 013:868 JLINK_ReadReg(R12)  returns 0x12121212 (0000ms, 0334ms total)
T29F8 013:868 JLINK_ReadReg(R13 (SP))  returns 0x2000BF38 (0000ms, 0334ms total)
T29F8 013:868 JLINK_ReadReg(R14)  returns 0x08026CC7 (0000ms, 0334ms total)
T29F8 013:868 JLINK_ReadReg(R15 (PC))  returns 0x0801BC8C (0000ms, 0334ms total)
T29F8 013:868 JLINK_ReadReg(XPSR)  returns 0x01000000 (0000ms, 0334ms total)
T29F8 013:868 JLINK_ReadReg(MSP)  returns 0x2000F588 (0000ms, 0334ms total)
T29F8 013:868 JLINK_ReadReg(PSP)  returns 0x2000BF38 (0000ms, 0334ms total)
T29F8 013:868 JLINK_ReadReg(CFBP)  returns 0x02000000 (0000ms, 0334ms total)
T29F8 014:183 JLINK_ReadMemEx(0x0801BC8C, 0x003C Bytes, ..., Flags = 0x02000000) -- Read from C cache (60 bytes @ 0x0801BC8C) - Data: FE E7 00 00 1F B5 00 20 08 49 09 68 08 4A 12 68 ...  returns 0x3C (0000ms, 0334ms total)
T29F8 014:183 JLINK_ReadMemEx(0x0801BC8C, 0x0002 Bytes, ..., Flags = 0x02000000) -- Read from C cache (2 bytes @ 0x0801BC8C) - Data: FE E7  returns 0x02 (0000ms, 0334ms total)
T29F8 014:183 JLINK_Step() -- Read from C cache (2 bytes @ 0x0801BC8C) -- Simulated  returns 0x00 (0001ms, 0335ms total)
T29F8 014:184 JLINK_ReadReg(R15 (PC))  returns 0x0801BC8C (0000ms, 0335ms total)
T29F8 014:184 JLINK_ReadReg(XPSR)  returns 0x01000000 (0000ms, 0335ms total)
T29F8 014:184 JLINK_ReadMemEx(0x0801BC8A, 0x0002 Bytes, ..., Flags = 0x02000000) -- Read from C cache (2 bytes @ 0x0801BC8A) - Data: 00 BF  returns 0x02 (0000ms, 0335ms total)
T29F8 014:184 JLINK_ReadMemEx(0x0801BC8C, 0x003C Bytes, ..., Flags = 0x02000000) -- Read from C cache (60 bytes @ 0x0801BC8C) - Data: FE E7 00 00 1F B5 00 20 08 49 09 68 08 4A 12 68 ...  returns 0x3C (0000ms, 0335ms total)
T29F8 014:184 JLINK_ReadMemEx(0x0801BC8C, 0x0002 Bytes, ..., Flags = 0x02000000) -- Read from C cache (2 bytes @ 0x0801BC8C) - Data: FE E7  returns 0x02 (0000ms, 0335ms total)
T29F8 014:184 JLINK_ReadReg(R0)  returns 0x00000000 (0000ms, 0335ms total)
T29F8 014:184 JLINK_ReadReg(R1)  returns 0x01010101 (0000ms, 0335ms total)
T29F8 014:184 JLINK_ReadReg(R2)  returns 0x02020202 (0000ms, 0335ms total)
T29F8 014:184 JLINK_ReadReg(R3)  returns 0x03030303 (0000ms, 0335ms total)
T29F8 014:184 JLINK_ReadReg(R4)  returns 0x04040404 (0000ms, 0335ms total)
T29F8 014:184 JLINK_ReadReg(R5)  returns 0x05050505 (0000ms, 0335ms total)
T29F8 014:184 JLINK_ReadReg(R6)  returns 0x06060606 (0000ms, 0335ms total)
T29F8 014:184 JLINK_ReadReg(R7)  returns 0x07070707 (0000ms, 0335ms total)
T29F8 014:184 JLINK_ReadReg(R8)  returns 0x08080808 (0000ms, 0335ms total)
T29F8 014:184 JLINK_ReadReg(R9)  returns 0x09090909 (0000ms, 0335ms total)
T29F8 014:184 JLINK_ReadReg(R10)  returns 0x10101010 (0000ms, 0335ms total)
T29F8 014:184 JLINK_ReadReg(R11)  returns 0x11111111 (0000ms, 0335ms total)
T29F8 014:184 JLINK_ReadReg(R12)  returns 0x12121212 (0000ms, 0335ms total)
T29F8 014:184 JLINK_ReadReg(R13 (SP))  returns 0x2000BF38 (0000ms, 0335ms total)
T29F8 014:184 JLINK_ReadReg(R14)  returns 0x08026CC7 (0000ms, 0335ms total)
T29F8 014:184 JLINK_ReadReg(R15 (PC))  returns 0x0801BC8C (0000ms, 0335ms total)
T29F8 014:184 JLINK_ReadReg(XPSR)  returns 0x01000000 (0000ms, 0335ms total)
T29F8 014:184 JLINK_ReadReg(MSP)  returns 0x2000F588 (0000ms, 0335ms total)
T29F8 014:184 JLINK_ReadReg(PSP)  returns 0x2000BF38 (0000ms, 0335ms total)
T29F8 014:184 JLINK_ReadReg(CFBP)  returns 0x02000000 (0000ms, 0335ms total)
T29F8 014:496 JLINK_ReadMemEx(0x0801BC8C, 0x003C Bytes, ..., Flags = 0x02000000) -- Read from C cache (60 bytes @ 0x0801BC8C) - Data: FE E7 00 00 1F B5 00 20 08 49 09 68 08 4A 12 68 ...  returns 0x3C (0000ms, 0335ms total)
T29F8 014:496 JLINK_ReadMemEx(0x0801BC8C, 0x0002 Bytes, ..., Flags = 0x02000000) -- Read from C cache (2 bytes @ 0x0801BC8C) - Data: FE E7  returns 0x02 (0000ms, 0335ms total)
T29F8 014:496 JLINK_Step() -- Read from C cache (2 bytes @ 0x0801BC8C) -- Simulated  returns 0x00 (0000ms, 0335ms total)
T29F8 014:496 JLINK_ReadReg(R15 (PC))  returns 0x0801BC8C (0000ms, 0335ms total)
T29F8 014:496 JLINK_ReadReg(XPSR)  returns 0x01000000 (0000ms, 0335ms total)
T29F8 014:496 JLINK_ReadMemEx(0x0801BC8A, 0x0002 Bytes, ..., Flags = 0x02000000) -- Read from C cache (2 bytes @ 0x0801BC8A) - Data: 00 BF  returns 0x02 (0000ms, 0335ms total)
T29F8 014:496 JLINK_ReadMemEx(0x0801BC8C, 0x003C Bytes, ..., Flags = 0x02000000) -- Read from C cache (60 bytes @ 0x0801BC8C) - Data: FE E7 00 00 1F B5 00 20 08 49 09 68 08 4A 12 68 ...  returns 0x3C (0000ms, 0335ms total)
T29F8 014:496 JLINK_ReadMemEx(0x0801BC8C, 0x0002 Bytes, ..., Flags = 0x02000000) -- Read from C cache (2 bytes @ 0x0801BC8C) - Data: FE E7  returns 0x02 (0000ms, 0335ms total)
T29F8 014:496 JLINK_ReadReg(R0)  returns 0x00000000 (0000ms, 0335ms total)
T29F8 014:496 JLINK_ReadReg(R1)  returns 0x01010101 (0000ms, 0335ms total)
T29F8 014:496 JLINK_ReadReg(R2)  returns 0x02020202 (0000ms, 0335ms total)
T29F8 014:496 JLINK_ReadReg(R3)  returns 0x03030303 (0000ms, 0335ms total)
T29F8 014:496 JLINK_ReadReg(R4)  returns 0x04040404 (0000ms, 0335ms total)
T29F8 014:496 JLINK_ReadReg(R5)  returns 0x05050505 (0000ms, 0335ms total)
T29F8 014:496 JLINK_ReadReg(R6)  returns 0x06060606 (0000ms, 0335ms total)
T29F8 014:496 JLINK_ReadReg(R7)  returns 0x07070707 (0000ms, 0335ms total)
T29F8 014:496 JLINK_ReadReg(R8)  returns 0x08080808 (0000ms, 0335ms total)
T29F8 014:496 JLINK_ReadReg(R9)  returns 0x09090909 (0000ms, 0335ms total)
T29F8 014:496 JLINK_ReadReg(R10)  returns 0x10101010 (0000ms, 0335ms total)
T29F8 014:496 JLINK_ReadReg(R11)  returns 0x11111111 (0000ms, 0335ms total)
T29F8 014:496 JLINK_ReadReg(R12)  returns 0x12121212 (0000ms, 0335ms total)
T29F8 014:496 JLINK_ReadReg(R13 (SP))  returns 0x2000BF38 (0000ms, 0335ms total)
